
T23EC 000:346 SEGGER J-Link V4.98e Log File (0001ms, 0283ms total)
T23EC 000:346 DLL Compiled: May  5 2015 11:00:52 (0001ms, 0283ms total)
T23EC 000:346 Logging started @ 2018-05-23 13:24 (0001ms, 0283ms total)
T23EC 000:347 JLINK_SetWarnOutHandler(...) (0002ms, 0285ms total)
T23EC 000:349 JLINK_OpenEx(...)
Firmware: J-Link ARM-OB STM32 compiled Aug 22 2012 19:52:04
Hardware: V7.00
S/N: 20090928
Feature(s): RDI,FlashDL,FlashBP,JFlash,GDBFull  returns O.K. (0271ms, 0556ms total)
T23EC 000:620 JLINK_SetErrorOutHandler(...) (0000ms, 0556ms total)
T23EC 000:620 JLINK_ExecCommand("ProjectFile = "C:\Users\windows10\Desktop\工程\工程检录\MDK-ARM\JLinkSettings.ini"", ...)Device "STM32F427II" selected.  returns 0x00 (0032ms, 0588ms total)
T23EC 000:681 JLINK_ExecCommand("Device = STM32F427IIHx", ...)Device "STM32F427II" selected.  returns 0x00 (0013ms, 0601ms total)
T23EC 000:694 JLINK_ExecCommand("DisableConnectionTimeout", ...)  returns 0x01 (0000ms, 0601ms total)
T23EC 000:694 JLINK_GetHardwareVersion()  returns 0x11170 (0000ms, 0601ms total)
T23EC 000:694 JLINK_GetDLLVersion()  returns 49805 (0001ms, 0602ms total)
T23EC 000:695 JLINK_GetFirmwareString(...) (0000ms, 0602ms total)
T23EC 000:752 JLINK_GetDLLVersion()  returns 49805 (0000ms, 0602ms total)
T23EC 000:752 JLINK_GetCompileDateTime() (0000ms, 0602ms total)
T23EC 000:762 JLINK_GetFirmwareString(...) (0000ms, 0602ms total)
T23EC 000:771 JLINK_GetHardwareVersion()  returns 0x11170 (0000ms, 0602ms total)
T23EC 000:833 JLINK_TIF_Select(JLINKARM_TIF_SWD)  returns 0x00 (0001ms, 0603ms total)
T23EC 000:834 JLINK_SetSpeed(5000) (0001ms, 0604ms total)
T23EC 000:835 JLINK_GetId() >0x108 TIF>Found SWD-DP with ID 0x2BA01477 >0x0D TIF> >0x28 TIF> >0x0D TIF> >0x28 TIF> >0x0D TIF> >0x21 TIF> >0x0D TIF> >0x28 TIF> >0x0D TIF> >0x28 TIF> >0x0D TIF> >0x28 TIF> >0x0D TIF> >0x21 TIF> >0x0D TIF> >0x21 TIF> >0x0D TIF> >0x28 TIF> >0x0D TIF> >0x21 TIF> >0x0D TIF> >0x21 TIF> >0x0D TIF> >0x28 TIF> >0x0D TIF> >0x28 TIF> >0x0D TIF> >0x28 TIF> >0x0D TIF> >0x21 TIF> >0x0D TIF> >0x21 TIF> >0x0D TIF> >0x28 TIF> >0x0D TIF> >0x28 TIF> >0x108 TIF>Found SWD-DP with ID 0x2BA01477
 >0x0D TIF> >0x21 TIF> >0x0D TIF> >0x28 TIF> >0x0D TIF> >0x28 TIF> >0x0D TIF> >0x21 TIF> >0x0D TIF> >0x28 TIF> >0x0D TIF> >0x21 TIF> >0x0D TIF> >0x21 TIF> >0x0D TIF> >0x21 TIF> >0x0D TIF> >0x21 TIF> >0x0D TIF> >0x28 TIF> >0x0D TIF> >0x28 TIF> >0x0D TIF> >0x21 TIF> >0x0D TIF> >0x28 TIF> >0x0D TIF> >0x28 TIF> >0x0D TIF> >0x28 TIF> >0x0D TIF> >0x21 TIF> >0x0D TIF> >0x21 TIF> >0x0D TIF> >0x28 TIF> >0x0D TIF> >0x21 TIF> >0x0D TIF> >0x21 TIF>Found Cortex-M4 r0p1, Little endian.
 -- CPU_WriteMem(4 bytes @ 0xE0002000) -- CPU_ReadMem(4 bytes @ 0xE000EDF0) -- CPU_WriteMem(4 bytes @ 0xE000EDF0) -- CPU_ReadMem(4 bytes @ 0xE0002000)FPUnit: 6 code (BP) slots and 2 literal slots -- CPU_ReadMem(4 bytes @ 0xE000EDFC) -- CPU_WriteMem(4 bytes @ 0xE000EDFC) -- CPU_ReadMem(4 bytes @ 0xE0001000) -- CPU_WriteMem(4 bytes @ 0xE0001000) -- CPU_ReadMem(4 bytes @ 0xE000ED88) -- CPU_WriteMem(4 bytes @ 0xE000ED88) -- CPU_ReadMem(4 bytes @ 0xE000ED88) -- CPU_WriteMem(4 bytes @ 0xE000ED88)
CoreSight components:ROMTbl 0 @ E00FF000 -- CPU_ReadMem(16 bytes @ 0xE00FF000) -- CPU_ReadMem(16 bytes @ 0xE000EFF0) -- CPU_ReadMem(16 bytes @ 0xE000EFE0)ROMTbl 0 [0]: FFF0F000, CID: B105E00D, PID: 000BB00C SCS -- CPU_ReadMem(16 bytes @ 0xE0001FF0) -- CPU_ReadMem(16 bytes @ 0xE0001FE0)ROMTbl 0 [1]: FFF02000, CID: B105E00D, PID: 003BB002 DWT -- CPU_ReadMem(16 bytes @ 0xE0002FF0) -- CPU_ReadMem(16 bytes @ 0xE0002FE0)ROMTbl 0 [2]: FFF03000, CID: B105E00D, PID: 002BB003 FPB
 -- CPU_ReadMem(16 bytes @ 0xE0000FF0) -- CPU_ReadMem(16 bytes @ 0xE0000FE0)ROMTbl 0 [3]: FFF01000, CID: B105E00D, PID: 003BB001 ITM -- CPU_ReadMem(16 bytes @ 0xE00FF010) -- CPU_ReadMem(16 bytes @ 0xE0040FF0) -- CPU_ReadMem(16 bytes @ 0xE0040FE0)ROMTbl 0 [4]: FFF41000, CID: B105900D, PID: 000BB9A1 TPIU -- CPU_ReadMem(16 bytes @ 0xE0041FF0) -- CPU_ReadMem(16 bytes @ 0xE0041FE0)ROMTbl 0 [5]: FFF42000, CID: B105900D, PID: 000BB925 ETM >0x0D TIF> >0x21 TIF>  returns 0x2BA01477 (0179ms, 0783ms total)
T23EC 001:014 JLINK_GetDLLVersion()  returns 49805 (0000ms, 0783ms total)
T23EC 001:014 JLINK_CORE_GetFound()  returns 0xE0000FF (0000ms, 0783ms total)
T23EC 001:014 JLINK_GetDebugInfo(0x100) -- Value=0xE00FF003  returns 0x00 (0000ms, 0783ms total)
T23EC 001:024 JLINK_ReadMem (0xE00FF000, 0x0020 Bytes, ...) -- CPU is running -- CPU_ReadMem(32 bytes @ 0xE00FF000) - Data: 03 F0 F0 FF 03 20 F0 FF 03 30 F0 FF 03 10 F0 FF ...  returns 0x00 (0002ms, 0785ms total)
T23EC 001:026 JLINK_ReadMem (0xE000EFF0, 0x0010 Bytes, ...) -- CPU is running -- CPU_ReadMem(16 bytes @ 0xE000EFF0) - Data: 0D 00 00 00 E0 00 00 00 05 00 00 00 B1 00 00 00  returns 0x00 (0001ms, 0786ms total)
T23EC 001:027 JLINK_ReadMem (0xE000EFD0, 0x0020 Bytes, ...) -- CPU is running -- CPU_ReadMem(32 bytes @ 0xE000EFD0) - Data: 04 00 00 00 00 00 00 00 00 00 00 00 00 00 00 00 ...  returns 0x00 (0001ms, 0787ms total)
T23EC 001:028 JLINK_ReadMem (0xE0001FF0, 0x0010 Bytes, ...) -- CPU is running -- CPU_ReadMem(16 bytes @ 0xE0001FF0) - Data: 0D 00 00 00 E0 00 00 00 05 00 00 00 B1 00 00 00  returns 0x00 (0001ms, 0788ms total)
T23EC 001:029 JLINK_ReadMem (0xE0001FD0, 0x0020 Bytes, ...) -- CPU is running -- CPU_ReadMem(32 bytes @ 0xE0001FD0) - Data: 04 00 00 00 00 00 00 00 00 00 00 00 00 00 00 00 ...  returns 0x00 (0001ms, 0789ms total)
T23EC 001:030 JLINK_ReadMem (0xE0002FF0, 0x0010 Bytes, ...) -- CPU is running -- CPU_ReadMem(16 bytes @ 0xE0002FF0) - Data: 0D 00 00 00 E0 00 00 00 05 00 00 00 B1 00 00 00  returns 0x00 (0001ms, 0790ms total)
T23EC 001:031 JLINK_ReadMem (0xE0002FD0, 0x0020 Bytes, ...) -- CPU is running -- CPU_ReadMem(32 bytes @ 0xE0002FD0) - Data: 04 00 00 00 00 00 00 00 00 00 00 00 00 00 00 00 ...  returns 0x00 (0001ms, 0791ms total)
T23EC 001:032 JLINK_ReadMem (0xE0000FF0, 0x0010 Bytes, ...) -- CPU is running -- CPU_ReadMem(16 bytes @ 0xE0000FF0) - Data: 0D 00 00 00 E0 00 00 00 05 00 00 00 B1 00 00 00  returns 0x00 (0001ms, 0792ms total)
T23EC 001:033 JLINK_ReadMem (0xE0000FD0, 0x0020 Bytes, ...) -- CPU is running -- CPU_ReadMem(32 bytes @ 0xE0000FD0) - Data: 04 00 00 00 00 00 00 00 00 00 00 00 00 00 00 00 ...  returns 0x00 (0001ms, 0793ms total)
T23EC 001:034 JLINK_ReadMem (0xE0040FF0, 0x0010 Bytes, ...) -- CPU is running -- CPU_ReadMem(16 bytes @ 0xE0040FF0) - Data: 0D 00 00 00 90 00 00 00 05 00 00 00 B1 00 00 00  returns 0x00 (0001ms, 0794ms total)
T23EC 001:035 JLINK_ReadMem (0xE0040FD0, 0x0020 Bytes, ...) -- CPU is running -- CPU_ReadMem(32 bytes @ 0xE0040FD0) - Data: 04 00 00 00 00 00 00 00 00 00 00 00 00 00 00 00 ...  returns 0x00 (0001ms, 0795ms total)
T23EC 001:036 JLINK_ReadMem (0xE0041FF0, 0x0010 Bytes, ...) -- CPU is running -- CPU_ReadMem(16 bytes @ 0xE0041FF0) - Data: 0D 00 00 00 90 00 00 00 05 00 00 00 B1 00 00 00  returns 0x00 (0001ms, 0796ms total)
T23EC 001:037 JLINK_ReadMem (0xE0041FD0, 0x0020 Bytes, ...) -- CPU is running -- CPU_ReadMem(32 bytes @ 0xE0041FD0) - Data: 04 00 00 00 00 00 00 00 00 00 00 00 00 00 00 00 ...  returns 0x00 (0002ms, 0798ms total)
T23EC 001:039 JLINK_ReadMemU32(0xE000EF40, 0x0001 Items, ...) -- CPU is running -- CPU_ReadMem(4 bytes @ 0xE000EF40) - Data: 21 00 11 10  returns 0x01 (0001ms, 0799ms total)
T23EC 001:040 JLINK_ReadMemU32(0xE000EF44, 0x0001 Items, ...) -- CPU is running -- CPU_ReadMem(4 bytes @ 0xE000EF44) - Data: 11 00 00 11  returns 0x01 (0000ms, 0799ms total)
T23EC 001:040 JLINK_ReadMemU32(0xE000ED00, 0x0001 Items, ...) -- CPU is running -- CPU_ReadMem(4 bytes @ 0xE000ED00) - Data: 41 C2 0F 41  returns 0x01 (0002ms, 0801ms total)
T23EC 001:042 JLINK_SetResetType(JLINKARM_RESET_TYPE_NORMAL)  returns JLINKARM_RESET_TYPE_NORMAL (0000ms, 0801ms total)
T23EC 001:042 JLINK_Reset() -- CPU is running -- CPU_WriteMem(4 bytes @ 0xE000EDF0) -- CPU is running -- CPU_WriteMem(4 bytes @ 0xE000EDFC) >0x35 TIF> -- CPU is running -- CPU_WriteMem(4 bytes @ 0xE000ED0C) -- CPU is running -- CPU_ReadMem(4 bytes @ 0xE000EDF0) -- CPU is running -- CPU_ReadMem(4 bytes @ 0xE000EDF0) -- CPU is running -- CPU_WriteMem(4 bytes @ 0xE000EDF0) -- CPU is running -- CPU_WriteMem(4 bytes @ 0xE000EDFC) -- CPU is running -- CPU_ReadMem(4 bytes @ 0xE000EDF0)
 -- CPU_WriteMem(4 bytes @ 0xE0002000) -- CPU_ReadMem(4 bytes @ 0xE000EDFC) -- CPU_ReadMem(4 bytes @ 0xE0001000) (0020ms, 0821ms total)
T23EC 001:063 JLINK_Halt()  returns 0x00 (0000ms, 0821ms total)
T23EC 001:063 JLINK_IsHalted()  returns TRUE (0000ms, 0821ms total)
T23EC 001:063 JLINK_ReadMemU32(0xE000EDF0, 0x0001 Items, ...) -- CPU_ReadMem(4 bytes @ 0xE000EDF0) - Data: 03 00 03 00  returns 0x01 (0000ms, 0821ms total)
T23EC 001:063 JLINK_WriteU32(0xE000EDF0, 0xA05F0003) -- CPU_WriteMem(4 bytes @ 0xE000EDF0)  returns 0x00 (0001ms, 0822ms total)
T23EC 001:064 JLINK_WriteU32(0xE000EDFC, 0x01000000) -- CPU_WriteMem(4 bytes @ 0xE000EDFC)  returns 0x00 (0001ms, 0823ms total)
T23EC 001:102 JLINK_GetHWStatus(...)  returns 0x00 (0001ms, 0824ms total)
T23EC 001:131 JLINK_GetNumBPUnits(Type = 0xFFFFFF00)  returns 0x06 (0000ms, 0824ms total)
T23EC 001:131 JLINK_GetNumBPUnits(Type = 0xF0)  returns 0x2000 (0000ms, 0824ms total)
T23EC 001:131 JLINK_GetNumWPUnits()  returns 0x04 (0000ms, 0824ms total)
T23EC 001:163 JLINK_GetSpeed()  returns 0xFA0 (0000ms, 0824ms total)
T23EC 001:185 JLINK_ReadMemU32(0xE000E004, 0x0001 Items, ...) -- CPU_ReadMem(4 bytes @ 0xE000E004) - Data: 02 00 00 00  returns 0x01 (0000ms, 0824ms total)
T23EC 001:186 JLINK_ReadMemU32(0xE000E004, 0x0001 Items, ...) -- CPU_ReadMem(4 bytes @ 0xE000E004) - Data: 02 00 00 00  returns 0x01 (0000ms, 0825ms total)
T23EC 001:186 JLINK_WriteMem(0xE0001000, 0x001C Bytes, ...) - Data: 01 00 00 00 00 00 00 00 00 00 00 00 00 00 00 00 ... -- CPU_WriteMem(28 bytes @ 0xE0001000)  returns 0x1C (0004ms, 0829ms total)
T23EC 001:190 JLINK_ReadMem (0xE0001000, 0x001C Bytes, ...) -- CPU_ReadMem(28 bytes @ 0xE0001000) - Data: 01 00 00 40 00 00 00 00 00 00 00 00 00 00 00 00 ...  returns 0x00 (0001ms, 0830ms total)
T23EC 001:191 JLINK_Halt()  returns 0x00 (0000ms, 0830ms total)
T23EC 001:191 JLINK_IsHalted()  returns TRUE (0000ms, 0830ms total)
T23EC 001:212 JLINK_WriteMem(0x20000000, 0x0198 Bytes, ...) - Data: 00 BE 0A E0 0D 78 2D 06 68 40 08 24 40 00 00 D3 ... -- CPU_WriteMem(408 bytes @ 0x20000000)  returns 0x198 (0008ms, 0838ms total)
T23EC 001:220 JLINK_WriteReg(R0, 0x08000000)  returns 0x00 (0000ms, 0838ms total)
T23EC 001:220 JLINK_WriteReg(R1, 0x0A037A00)  returns 0x00 (0000ms, 0838ms total)
T23EC 001:220 JLINK_WriteReg(R2, 0x00000001)  returns 0x00 (0000ms, 0838ms total)
T23EC 001:220 JLINK_WriteReg(R3, 0x00000000)  returns 0x00 (0000ms, 0838ms total)
T23EC 001:220 JLINK_WriteReg(R4, 0x00000000)  returns 0x00 (0000ms, 0838ms total)
T23EC 001:220 JLINK_WriteReg(R5, 0x00000000)  returns 0x00 (0000ms, 0838ms total)
T23EC 001:220 JLINK_WriteReg(R6, 0x00000000)  returns 0x00 (0000ms, 0838ms total)
T23EC 001:220 JLINK_WriteReg(R7, 0x00000000)  returns 0x00 (0000ms, 0838ms total)
T23EC 001:220 JLINK_WriteReg(R8, 0x00000000)  returns 0x00 (0000ms, 0838ms total)
T23EC 001:220 JLINK_WriteReg(R9, 0x20000194)  returns 0x00 (0000ms, 0838ms total)
T23EC 001:220 JLINK_WriteReg(R10, 0x00000000)  returns 0x00 (0000ms, 0838ms total)
T23EC 001:220 JLINK_WriteReg(R11, 0x00000000)  returns 0x00 (0000ms, 0838ms total)
T23EC 001:220 JLINK_WriteReg(R12, 0x00000000)  returns 0x00 (0000ms, 0838ms total)
T23EC 001:220 JLINK_WriteReg(R13 (SP), 0x20001000)  returns 0x00 (0000ms, 0838ms total)
T23EC 001:220 JLINK_WriteReg(R14, 0x20000001)  returns 0x00 (0000ms, 0838ms total)
T23EC 001:220 JLINK_WriteReg(R15 (PC), 0x2000005E)  returns 0x00 (0000ms, 0838ms total)
T23EC 001:220 JLINK_WriteReg(XPSR, 0x01000000)  returns 0x00 (0001ms, 0839ms total)
T23EC 001:221 JLINK_WriteReg(MSP, 0x20001000)  returns 0x00 (0000ms, 0839ms total)
T23EC 001:221 JLINK_WriteReg(PSP, 0x20001000)  returns 0x00 (0000ms, 0839ms total)
T23EC 001:221 JLINK_WriteReg(CFBP, 0x00000000)  returns 0x00 (0000ms, 0839ms total)
T23EC 001:221 JLINK_SetBPEx(Addr = 0x20000000, Type = 0xFFFFFFF2) -- CPU_ReadMem(2 bytes @ 0x20000000)  returns 0x00000001 (0000ms, 0839ms total)
T23EC 001:221 JLINK_Go() -- CPU_WriteMem(2 bytes @ 0x20000000) -- CPU_ReadMem(4 bytes @ 0xE0001000) -- CPU_WriteMem(4 bytes @ 0xE0002008) -- CPU_WriteMem(4 bytes @ 0xE000200C) -- CPU_WriteMem(4 bytes @ 0xE0002010) -- CPU_WriteMem(4 bytes @ 0xE0002014) -- CPU_WriteMem(4 bytes @ 0xE0002018) -- CPU_WriteMem(4 bytes @ 0xE000201C) -- CPU_WriteMem(4 bytes @ 0xE0001004) (0008ms, 0847ms total)
T23EC 001:229 JLINK_IsHalted() -- CPU_ReadMem(2 bytes @ 0x20000000)  returns TRUE (0004ms, 0851ms total)
T23EC 001:233 JLINK_ReadReg(R15 (PC))  returns 0x20000000 (0000ms, 0847ms total)
T23EC 001:233 JLINK_ClrBPEx(BPHandle = 0x00000001)  returns 0x00 (0000ms, 0847ms total)
T23EC 001:233 JLINK_ReadReg(R0)  returns 0x00000000 (0000ms, 0847ms total)
T23EC 001:236 JLINK_WriteReg(R0, 0x08000000)  returns 0x00 (0000ms, 0847ms total)
T23EC 001:236 JLINK_WriteReg(R1, 0x00004000)  returns 0x00 (0000ms, 0847ms total)
T23EC 001:236 JLINK_WriteReg(R2, 0x000000FF)  returns 0x00 (0000ms, 0847ms total)
T23EC 001:236 JLINK_WriteReg(R3, 0x00000000)  returns 0x00 (0000ms, 0847ms total)
T23EC 001:236 JLINK_WriteReg(R4, 0x00000000)  returns 0x00 (0000ms, 0847ms total)
T23EC 001:236 JLINK_WriteReg(R5, 0x00000000)  returns 0x00 (0000ms, 0847ms total)
T23EC 001:236 JLINK_WriteReg(R6, 0x00000000)  returns 0x00 (0000ms, 0847ms total)
T23EC 001:236 JLINK_WriteReg(R7, 0x00000000)  returns 0x00 (0000ms, 0847ms total)
T23EC 001:236 JLINK_WriteReg(R8, 0x00000000)  returns 0x00 (0001ms, 0848ms total)
T23EC 001:237 JLINK_WriteReg(R9, 0x20000194)  returns 0x00 (0000ms, 0848ms total)
T23EC 001:237 JLINK_WriteReg(R10, 0x00000000)  returns 0x00 (0000ms, 0848ms total)
T23EC 001:237 JLINK_WriteReg(R11, 0x00000000)  returns 0x00 (0000ms, 0848ms total)
T23EC 001:237 JLINK_WriteReg(R12, 0x00000000)  returns 0x00 (0000ms, 0848ms total)
T23EC 001:237 JLINK_WriteReg(R13 (SP), 0x20001000)  returns 0x00 (0000ms, 0848ms total)
T23EC 001:237 JLINK_WriteReg(R14, 0x20000001)  returns 0x00 (0000ms, 0848ms total)
T23EC 001:237 JLINK_WriteReg(R15 (PC), 0x20000020)  returns 0x00 (0000ms, 0848ms total)
T23EC 001:237 JLINK_WriteReg(XPSR, 0x01000000)  returns 0x00 (0000ms, 0848ms total)
T23EC 001:237 JLINK_WriteReg(MSP, 0x20001000)  returns 0x00 (0000ms, 0848ms total)
T23EC 001:237 JLINK_WriteReg(PSP, 0x20001000)  returns 0x00 (0000ms, 0848ms total)
T23EC 001:237 JLINK_WriteReg(CFBP, 0x00000000)  returns 0x00 (0000ms, 0848ms total)
T23EC 001:237 JLINK_SetBPEx(Addr = 0x20000000, Type = 0xFFFFFFF2)  returns 0x00000002 (0000ms, 0848ms total)
T23EC 001:237 JLINK_Go() -- CPU_ReadMem(4 bytes @ 0xE0001000) (0003ms, 0851ms total)
T23EC 001:240 JLINK_IsHalted() -- CPU_ReadMem(2 bytes @ 0x20000000)  returns TRUE (0004ms, 0855ms total)
T23EC 001:244 JLINK_ReadReg(R15 (PC))  returns 0x20000000 (0001ms, 0852ms total)
T23EC 001:245 JLINK_ClrBPEx(BPHandle = 0x00000002)  returns 0x00 (0000ms, 0852ms total)
T23EC 001:245 JLINK_ReadReg(R0)  returns 0x00000001 (0000ms, 0852ms total)
T23EC 001:245 JLINK_WriteReg(R0, 0x08000000)  returns 0x00 (0000ms, 0852ms total)
T23EC 001:245 JLINK_WriteReg(R1, 0x00004000)  returns 0x00 (0000ms, 0852ms total)
T23EC 001:245 JLINK_WriteReg(R2, 0x000000FF)  returns 0x00 (0000ms, 0852ms total)
T23EC 001:245 JLINK_WriteReg(R3, 0x00000000)  returns 0x00 (0000ms, 0852ms total)
T23EC 001:245 JLINK_WriteReg(R4, 0x00000000)  returns 0x00 (0000ms, 0852ms total)
T23EC 001:245 JLINK_WriteReg(R5, 0x00000000)  returns 0x00 (0000ms, 0852ms total)
T23EC 001:245 JLINK_WriteReg(R6, 0x00000000)  returns 0x00 (0000ms, 0852ms total)
T23EC 001:245 JLINK_WriteReg(R7, 0x00000000)  returns 0x00 (0000ms, 0852ms total)
T23EC 001:245 JLINK_WriteReg(R8, 0x00000000)  returns 0x00 (0000ms, 0852ms total)
T23EC 001:245 JLINK_WriteReg(R9, 0x20000194)  returns 0x00 (0000ms, 0852ms total)
T23EC 001:245 JLINK_WriteReg(R10, 0x00000000)  returns 0x00 (0000ms, 0852ms total)
T23EC 001:245 JLINK_WriteReg(R11, 0x00000000)  returns 0x00 (0000ms, 0852ms total)
T23EC 001:245 JLINK_WriteReg(R12, 0x00000000)  returns 0x00 (0000ms, 0852ms total)
T23EC 001:245 JLINK_WriteReg(R13 (SP), 0x20001000)  returns 0x00 (0000ms, 0852ms total)
T23EC 001:245 JLINK_WriteReg(R14, 0x20000001)  returns 0x00 (0001ms, 0853ms total)
T23EC 001:246 JLINK_WriteReg(R15 (PC), 0x200000D4)  returns 0x00 (0000ms, 0853ms total)
T23EC 001:246 JLINK_WriteReg(XPSR, 0x01000000)  returns 0x00 (0000ms, 0853ms total)
T23EC 001:246 JLINK_WriteReg(MSP, 0x20001000)  returns 0x00 (0000ms, 0853ms total)
T23EC 001:246 JLINK_WriteReg(PSP, 0x20001000)  returns 0x00 (0000ms, 0853ms total)
T23EC 001:246 JLINK_WriteReg(CFBP, 0x00000000)  returns 0x00 (0000ms, 0853ms total)
T23EC 001:246 JLINK_SetBPEx(Addr = 0x20000000, Type = 0xFFFFFFF2)  returns 0x00000003 (0000ms, 0853ms total)
T23EC 001:246 JLINK_Go() -- CPU_ReadMem(4 bytes @ 0xE0001000) (0003ms, 0856ms total)
T23EC 001:249 JLINK_IsHalted()  returns FALSE (0001ms, 0857ms total)
T23EC 001:488 JLINK_IsHalted()  returns FALSE (0000ms, 0856ms total)
T23EC 001:493 JLINK_IsHalted()  returns FALSE (0000ms, 0856ms total)
T23EC 001:495 JLINK_IsHalted()  returns FALSE (0001ms, 0857ms total)
T23EC 001:498 JLINK_IsHalted()  returns FALSE (0001ms, 0857ms total)
T23EC 001:501 JLINK_IsHalted()  returns FALSE (0000ms, 0856ms total)
T23EC 001:508 JLINK_IsHalted()  returns FALSE (0000ms, 0856ms total)
T23EC 001:510 JLINK_IsHalted()  returns FALSE (0000ms, 0856ms total)
T23EC 001:512 JLINK_IsHalted()  returns FALSE (0000ms, 0856ms total)
T23EC 001:514 JLINK_IsHalted()  returns FALSE (0001ms, 0857ms total)
T23EC 001:534 JLINK_IsHalted()  returns FALSE (0000ms, 0856ms total)
T23EC 001:536 JLINK_IsHalted()  returns FALSE (0001ms, 0857ms total)
T23EC 001:538 JLINK_IsHalted()  returns FALSE (0000ms, 0856ms total)
T23EC 001:540 JLINK_IsHalted()  returns FALSE (0000ms, 0856ms total)
T23EC 001:542 JLINK_IsHalted()  returns FALSE (0000ms, 0856ms total)
T23EC 001:544 JLINK_IsHalted()  returns FALSE (0000ms, 0856ms total)
T23EC 001:571 JLINK_IsHalted()  returns FALSE (0000ms, 0856ms total)
T23EC 001:573 JLINK_IsHalted()  returns FALSE (0000ms, 0856ms total)
T23EC 001:589 JLINK_IsHalted()  returns FALSE (0000ms, 0856ms total)
T23EC 001:681 JLINK_IsHalted() -- CPU_ReadMem(2 bytes @ 0x20000000)  returns TRUE (0004ms, 0860ms total)
T23EC 001:685 JLINK_ReadReg(R15 (PC))  returns 0x20000000 (0000ms, 0856ms total)
T23EC 001:685 JLINK_ClrBPEx(BPHandle = 0x00000003)  returns 0x00 (0000ms, 0856ms total)
T23EC 001:685 JLINK_ReadReg(R0)  returns 0x00000000 (0000ms, 0856ms total)
T23EC 001:686 JLINK_WriteReg(R0, 0x08004000)  returns 0x00 (0000ms, 0856ms total)
T23EC 001:686 JLINK_WriteReg(R1, 0x00004000)  returns 0x00 (0000ms, 0856ms total)
T23EC 001:686 JLINK_WriteReg(R2, 0x000000FF)  returns 0x00 (0000ms, 0856ms total)
T23EC 001:686 JLINK_WriteReg(R3, 0x00000000)  returns 0x00 (0000ms, 0856ms total)
T23EC 001:686 JLINK_WriteReg(R4, 0x00000000)  returns 0x00 (0000ms, 0856ms total)
T23EC 001:686 JLINK_WriteReg(R5, 0x00000000)  returns 0x00 (0000ms, 0856ms total)
T23EC 001:686 JLINK_WriteReg(R6, 0x00000000)  returns 0x00 (0000ms, 0856ms total)
T23EC 001:686 JLINK_WriteReg(R7, 0x00000000)  returns 0x00 (0000ms, 0856ms total)
T23EC 001:686 JLINK_WriteReg(R8, 0x00000000)  returns 0x00 (0000ms, 0856ms total)
T23EC 001:686 JLINK_WriteReg(R9, 0x20000194)  returns 0x00 (0000ms, 0856ms total)
T23EC 001:686 JLINK_WriteReg(R10, 0x00000000)  returns 0x00 (0000ms, 0856ms total)
T23EC 001:686 JLINK_WriteReg(R11, 0x00000000)  returns 0x00 (0000ms, 0856ms total)
T23EC 001:686 JLINK_WriteReg(R12, 0x00000000)  returns 0x00 (0000ms, 0856ms total)
T23EC 001:686 JLINK_WriteReg(R13 (SP), 0x20001000)  returns 0x00 (0001ms, 0857ms total)
T23EC 001:687 JLINK_WriteReg(R14, 0x20000001)  returns 0x00 (0000ms, 0857ms total)
T23EC 001:687 JLINK_WriteReg(R15 (PC), 0x20000020)  returns 0x00 (0000ms, 0857ms total)
T23EC 001:687 JLINK_WriteReg(XPSR, 0x01000000)  returns 0x00 (0000ms, 0857ms total)
T23EC 001:687 JLINK_WriteReg(MSP, 0x20001000)  returns 0x00 (0000ms, 0857ms total)
T23EC 001:687 JLINK_WriteReg(PSP, 0x20001000)  returns 0x00 (0000ms, 0857ms total)
T23EC 001:687 JLINK_WriteReg(CFBP, 0x00000000)  returns 0x00 (0000ms, 0857ms total)
T23EC 001:687 JLINK_SetBPEx(Addr = 0x20000000, Type = 0xFFFFFFF2)  returns 0x00000004 (0000ms, 0857ms total)
T23EC 001:687 JLINK_Go() -- CPU_ReadMem(4 bytes @ 0xE0001000) (0003ms, 0860ms total)
T23EC 001:690 JLINK_IsHalted() -- CPU_ReadMem(2 bytes @ 0x20000000)  returns TRUE (0004ms, 0864ms total)
T23EC 001:694 JLINK_ReadReg(R15 (PC))  returns 0x20000000 (0000ms, 0860ms total)
T23EC 001:694 JLINK_ClrBPEx(BPHandle = 0x00000004)  returns 0x00 (0000ms, 0860ms total)
T23EC 001:694 JLINK_ReadReg(R0)  returns 0x00000001 (0000ms, 0860ms total)
T23EC 001:694 JLINK_WriteReg(R0, 0x08004000)  returns 0x00 (0000ms, 0860ms total)
T23EC 001:694 JLINK_WriteReg(R1, 0x00004000)  returns 0x00 (0000ms, 0860ms total)
T23EC 001:694 JLINK_WriteReg(R2, 0x000000FF)  returns 0x00 (0000ms, 0860ms total)
T23EC 001:694 JLINK_WriteReg(R3, 0x00000000)  returns 0x00 (0000ms, 0860ms total)
T23EC 001:694 JLINK_WriteReg(R4, 0x00000000)  returns 0x00 (0000ms, 0860ms total)
T23EC 001:694 JLINK_WriteReg(R5, 0x00000000)  returns 0x00 (0000ms, 0860ms total)
T23EC 001:694 JLINK_WriteReg(R6, 0x00000000)  returns 0x00 (0000ms, 0860ms total)
T23EC 001:694 JLINK_WriteReg(R7, 0x00000000)  returns 0x00 (0000ms, 0860ms total)
T23EC 001:694 JLINK_WriteReg(R8, 0x00000000)  returns 0x00 (0000ms, 0860ms total)
T23EC 001:694 JLINK_WriteReg(R9, 0x20000194)  returns 0x00 (0000ms, 0860ms total)
T23EC 001:694 JLINK_WriteReg(R10, 0x00000000)  returns 0x00 (0000ms, 0860ms total)
T23EC 001:694 JLINK_WriteReg(R11, 0x00000000)  returns 0x00 (0000ms, 0860ms total)
T23EC 001:694 JLINK_WriteReg(R12, 0x00000000)  returns 0x00 (0000ms, 0860ms total)
T23EC 001:694 JLINK_WriteReg(R13 (SP), 0x20001000)  returns 0x00 (0000ms, 0860ms total)
T23EC 001:694 JLINK_WriteReg(R14, 0x20000001)  returns 0x00 (0000ms, 0860ms total)
T23EC 001:694 JLINK_WriteReg(R15 (PC), 0x200000D4)  returns 0x00 (0000ms, 0860ms total)
T23EC 001:694 JLINK_WriteReg(XPSR, 0x01000000)  returns 0x00 (0000ms, 0860ms total)
T23EC 001:694 JLINK_WriteReg(MSP, 0x20001000)  returns 0x00 (0001ms, 0861ms total)
T23EC 001:695 JLINK_WriteReg(PSP, 0x20001000)  returns 0x00 (0000ms, 0861ms total)
T23EC 001:695 JLINK_WriteReg(CFBP, 0x00000000)  returns 0x00 (0000ms, 0861ms total)
T23EC 001:695 JLINK_SetBPEx(Addr = 0x20000000, Type = 0xFFFFFFF2)  returns 0x00000005 (0000ms, 0861ms total)
T23EC 001:695 JLINK_Go() -- CPU_ReadMem(4 bytes @ 0xE0001000) (0002ms, 0863ms total)
T23EC 001:697 JLINK_IsHalted()  returns FALSE (0001ms, 0864ms total)
T23EC 001:789 JLINK_IsHalted()  returns FALSE (0000ms, 0863ms total)
T23EC 001:791 JLINK_IsHalted()  returns FALSE (0000ms, 0863ms total)
T23EC 001:793 JLINK_IsHalted()  returns FALSE (0000ms, 0863ms total)
T23EC 001:809 JLINK_IsHalted()  returns FALSE (0000ms, 0863ms total)
T23EC 001:811 JLINK_IsHalted()  returns FALSE (0000ms, 0863ms total)
T23EC 001:813 JLINK_IsHalted()  returns FALSE (0000ms, 0863ms total)
T23EC 001:893 JLINK_IsHalted()  returns FALSE (0000ms, 0863ms total)
T23EC 001:895 JLINK_IsHalted()  returns FALSE (0000ms, 0863ms total)
T23EC 001:896 JLINK_IsHalted()  returns FALSE (0000ms, 0863ms total)
T23EC 001:898 JLINK_IsHalted()  returns FALSE (0001ms, 0864ms total)
T23EC 001:900 JLINK_IsHalted()  returns FALSE (0000ms, 0863ms total)
T23EC 001:902 JLINK_IsHalted()  returns FALSE (0000ms, 0863ms total)
T23EC 001:913 JLINK_IsHalted()  returns FALSE (0000ms, 0863ms total)
T23EC 001:915 JLINK_IsHalted()  returns FALSE (0000ms, 0863ms total)
T23EC 001:917 JLINK_IsHalted()  returns FALSE (0000ms, 0863ms total)
T23EC 001:928 JLINK_IsHalted()  returns FALSE (0001ms, 0864ms total)
T23EC 001:930 JLINK_IsHalted()  returns FALSE (0000ms, 0863ms total)
T23EC 001:932 JLINK_IsHalted()  returns FALSE (0000ms, 0863ms total)
T23EC 001:934 JLINK_IsHalted()  returns FALSE (0001ms, 0864ms total)
T23EC 001:936 JLINK_IsHalted()  returns FALSE (0000ms, 0863ms total)
T23EC 001:938 JLINK_IsHalted()  returns FALSE (0000ms, 0863ms total)
T23EC 001:951 JLINK_IsHalted()  returns FALSE (0000ms, 0863ms total)
T23EC 002:006 JLINK_IsHalted()  returns FALSE (0001ms, 0864ms total)
T23EC 002:009 JLINK_IsHalted()  returns FALSE (0001ms, 0864ms total)
T23EC 002:012 JLINK_IsHalted()  returns FALSE (0000ms, 0863ms total)
T23EC 002:014 JLINK_IsHalted()  returns FALSE (0000ms, 0863ms total)
T23EC 002:045 JLINK_IsHalted() -- CPU_ReadMem(2 bytes @ 0x20000000)  returns TRUE (0004ms, 0867ms total)
T23EC 002:049 JLINK_ReadReg(R15 (PC))  returns 0x20000000 (0000ms, 0863ms total)
T23EC 002:049 JLINK_ClrBPEx(BPHandle = 0x00000005)  returns 0x00 (0000ms, 0863ms total)
T23EC 002:049 JLINK_ReadReg(R0)  returns 0x00000000 (0000ms, 0863ms total)
T23EC 002:050 JLINK_WriteReg(R0, 0x00000001)  returns 0x00 (0000ms, 0863ms total)
T23EC 002:050 JLINK_WriteReg(R1, 0x00004000)  returns 0x00 (0000ms, 0863ms total)
T23EC 002:050 JLINK_WriteReg(R2, 0x000000FF)  returns 0x00 (0000ms, 0863ms total)
T23EC 002:050 JLINK_WriteReg(R3, 0x00000000)  returns 0x00 (0000ms, 0863ms total)
T23EC 002:050 JLINK_WriteReg(R4, 0x00000000)  returns 0x00 (0000ms, 0863ms total)
T23EC 002:050 JLINK_WriteReg(R5, 0x00000000)  returns 0x00 (0001ms, 0864ms total)
T23EC 002:051 JLINK_WriteReg(R6, 0x00000000)  returns 0x00 (0000ms, 0864ms total)
T23EC 002:051 JLINK_WriteReg(R7, 0x00000000)  returns 0x00 (0000ms, 0864ms total)
T23EC 002:051 JLINK_WriteReg(R8, 0x00000000)  returns 0x00 (0000ms, 0864ms total)
T23EC 002:051 JLINK_WriteReg(R9, 0x20000194)  returns 0x00 (0000ms, 0864ms total)
T23EC 002:051 JLINK_WriteReg(R10, 0x00000000)  returns 0x00 (0000ms, 0864ms total)
T23EC 002:051 JLINK_WriteReg(R11, 0x00000000)  returns 0x00 (0000ms, 0864ms total)
T23EC 002:051 JLINK_WriteReg(R12, 0x00000000)  returns 0x00 (0000ms, 0864ms total)
T23EC 002:051 JLINK_WriteReg(R13 (SP), 0x20001000)  returns 0x00 (0000ms, 0864ms total)
T23EC 002:051 JLINK_WriteReg(R14, 0x20000001)  returns 0x00 (0000ms, 0864ms total)
T23EC 002:051 JLINK_WriteReg(R15 (PC), 0x2000008C)  returns 0x00 (0000ms, 0864ms total)
T23EC 002:051 JLINK_WriteReg(XPSR, 0x01000000)  returns 0x00 (0000ms, 0864ms total)
T23EC 002:051 JLINK_WriteReg(MSP, 0x20001000)  returns 0x00 (0000ms, 0864ms total)
T23EC 002:051 JLINK_WriteReg(PSP, 0x20001000)  returns 0x00 (0000ms, 0864ms total)
T23EC 002:051 JLINK_WriteReg(CFBP, 0x00000000)  returns 0x00 (0000ms, 0864ms total)
T23EC 002:051 JLINK_SetBPEx(Addr = 0x20000000, Type = 0xFFFFFFF2)  returns 0x00000006 (0000ms, 0864ms total)
T23EC 002:051 JLINK_Go() -- CPU_ReadMem(4 bytes @ 0xE0001000) (0003ms, 0867ms total)
T23EC 002:055 JLINK_IsHalted() -- CPU_ReadMem(2 bytes @ 0x20000000)  returns TRUE (0004ms, 0872ms total)
T23EC 002:059 JLINK_ReadReg(R15 (PC))  returns 0x20000000 (0000ms, 0868ms total)
T23EC 002:059 JLINK_ClrBPEx(BPHandle = 0x00000006)  returns 0x00 (0000ms, 0868ms total)
T23EC 002:059 JLINK_ReadReg(R0)  returns 0x00000000 (0000ms, 0868ms total)
T23EC 002:128 JLINK_WriteMem(0x20000000, 0x0198 Bytes, ...) - Data: 00 BE 0A E0 0D 78 2D 06 68 40 08 24 40 00 00 D3 ... -- CPU_WriteMem(408 bytes @ 0x20000000)  returns 0x198 (0007ms, 0875ms total)
T23EC 002:135 JLINK_WriteReg(R0, 0x08000000)  returns 0x00 (0000ms, 0875ms total)
T23EC 002:135 JLINK_WriteReg(R1, 0x0A037A00)  returns 0x00 (0000ms, 0875ms total)
T23EC 002:135 JLINK_WriteReg(R2, 0x00000002)  returns 0x00 (0000ms, 0875ms total)
T23EC 002:135 JLINK_WriteReg(R3, 0x00000000)  returns 0x00 (0000ms, 0875ms total)
T23EC 002:135 JLINK_WriteReg(R4, 0x00000000)  returns 0x00 (0000ms, 0875ms total)
T23EC 002:135 JLINK_WriteReg(R5, 0x00000000)  returns 0x00 (0000ms, 0875ms total)
T23EC 002:135 JLINK_WriteReg(R6, 0x00000000)  returns 0x00 (0000ms, 0875ms total)
T23EC 002:135 JLINK_WriteReg(R7, 0x00000000)  returns 0x00 (0000ms, 0875ms total)
T23EC 002:135 JLINK_WriteReg(R8, 0x00000000)  returns 0x00 (0000ms, 0875ms total)
T23EC 002:135 JLINK_WriteReg(R9, 0x20000194)  returns 0x00 (0000ms, 0875ms total)
T23EC 002:135 JLINK_WriteReg(R10, 0x00000000)  returns 0x00 (0000ms, 0875ms total)
T23EC 002:135 JLINK_WriteReg(R11, 0x00000000)  returns 0x00 (0000ms, 0875ms total)
T23EC 002:135 JLINK_WriteReg(R12, 0x00000000)  returns 0x00 (0000ms, 0875ms total)
T23EC 002:135 JLINK_WriteReg(R13 (SP), 0x20001000)  returns 0x00 (0000ms, 0875ms total)
T23EC 002:136 JLINK_WriteReg(R14, 0x20000001)  returns 0x00 (0000ms, 0876ms total)
T23EC 002:136 JLINK_WriteReg(R15 (PC), 0x2000005E)  returns 0x00 (0000ms, 0876ms total)
T23EC 002:136 JLINK_WriteReg(XPSR, 0x01000000)  returns 0x00 (0000ms, 0876ms total)
T23EC 002:136 JLINK_WriteReg(MSP, 0x20001000)  returns 0x00 (0000ms, 0876ms total)
T23EC 002:136 JLINK_WriteReg(PSP, 0x20001000)  returns 0x00 (0000ms, 0876ms total)
T23EC 002:136 JLINK_WriteReg(CFBP, 0x00000000)  returns 0x00 (0000ms, 0876ms total)
T23EC 002:136 JLINK_SetBPEx(Addr = 0x20000000, Type = 0xFFFFFFF2) -- CPU_ReadMem(2 bytes @ 0x20000000)  returns 0x00000007 (0001ms, 0877ms total)
T23EC 002:137 JLINK_Go() -- CPU_WriteMem(2 bytes @ 0x20000000) -- CPU_ReadMem(4 bytes @ 0xE0001000) (0003ms, 0880ms total)
T23EC 002:140 JLINK_IsHalted() -- CPU_ReadMem(2 bytes @ 0x20000000)  returns TRUE (0004ms, 0884ms total)
T23EC 002:144 JLINK_ReadReg(R15 (PC))  returns 0x20000000 (0000ms, 0880ms total)
T23EC 002:144 JLINK_ClrBPEx(BPHandle = 0x00000007)  returns 0x00 (0000ms, 0880ms total)
T23EC 002:144 JLINK_ReadReg(R0)  returns 0x00000000 (0001ms, 0881ms total)
T23EC 002:146 JLINK_WriteMem(0x20000198, 0x0400 Bytes, ...) - Data: 48 1F 00 20 C1 01 00 08 45 49 00 08 55 43 00 08 ... -- CPU_WriteMem(1024 bytes @ 0x20000198)  returns 0x400 (0013ms, 0894ms total)
T23EC 002:159 JLINK_WriteReg(R0, 0x08000000)  returns 0x00 (0000ms, 0894ms total)
T23EC 002:159 JLINK_WriteReg(R1, 0x00000400)  returns 0x00 (0000ms, 0894ms total)
T23EC 002:159 JLINK_WriteReg(R2, 0x20000198)  returns 0x00 (0000ms, 0894ms total)
T23EC 002:159 JLINK_WriteReg(R3, 0x00000000)  returns 0x00 (0000ms, 0894ms total)
T23EC 002:159 JLINK_WriteReg(R4, 0x00000000)  returns 0x00 (0000ms, 0894ms total)
T23EC 002:159 JLINK_WriteReg(R5, 0x00000000)  returns 0x00 (0000ms, 0894ms total)
T23EC 002:159 JLINK_WriteReg(R6, 0x00000000)  returns 0x00 (0000ms, 0894ms total)
T23EC 002:159 JLINK_WriteReg(R7, 0x00000000)  returns 0x00 (0000ms, 0894ms total)
T23EC 002:159 JLINK_WriteReg(R8, 0x00000000)  returns 0x00 (0000ms, 0894ms total)
T23EC 002:159 JLINK_WriteReg(R9, 0x20000194)  returns 0x00 (0000ms, 0894ms total)
T23EC 002:159 JLINK_WriteReg(R10, 0x00000000)  returns 0x00 (0000ms, 0894ms total)
T23EC 002:159 JLINK_WriteReg(R11, 0x00000000)  returns 0x00 (0000ms, 0894ms total)
T23EC 002:159 JLINK_WriteReg(R12, 0x00000000)  returns 0x00 (0000ms, 0894ms total)
T23EC 002:159 JLINK_WriteReg(R13 (SP), 0x20001000)  returns 0x00 (0000ms, 0894ms total)
T23EC 002:159 JLINK_WriteReg(R14, 0x20000001)  returns 0x00 (0000ms, 0894ms total)
T23EC 002:159 JLINK_WriteReg(R15 (PC), 0x20000120)  returns 0x00 (0001ms, 0895ms total)
T23EC 002:160 JLINK_WriteReg(XPSR, 0x01000000)  returns 0x00 (0000ms, 0895ms total)
T23EC 002:160 JLINK_WriteReg(MSP, 0x20001000)  returns 0x00 (0000ms, 0895ms total)
T23EC 002:160 JLINK_WriteReg(PSP, 0x20001000)  returns 0x00 (0000ms, 0895ms total)
T23EC 002:160 JLINK_WriteReg(CFBP, 0x00000000)  returns 0x00 (0000ms, 0895ms total)
T23EC 002:160 JLINK_SetBPEx(Addr = 0x20000000, Type = 0xFFFFFFF2)  returns 0x00000008 (0000ms, 0895ms total)
T23EC 002:160 JLINK_Go() -- CPU_ReadMem(4 bytes @ 0xE0001000) (0003ms, 0898ms total)
T23EC 002:163 JLINK_IsHalted()  returns FALSE (0001ms, 0899ms total)
T23EC 002:287 JLINK_IsHalted() -- CPU_ReadMem(2 bytes @ 0x20000000)  returns TRUE (0005ms, 0903ms total)
T23EC 002:292 JLINK_ReadReg(R15 (PC))  returns 0x20000000 (0000ms, 0898ms total)
T23EC 002:292 JLINK_ClrBPEx(BPHandle = 0x00000008)  returns 0x00 (0000ms, 0898ms total)
T23EC 002:292 JLINK_ReadReg(R0)  returns 0x00000000 (0000ms, 0898ms total)
T23EC 002:292 JLINK_WriteMem(0x20000198, 0x0400 Bytes, ...) - Data: DA 46 51 46 E7 FB 02 01 C5 F3 13 04 4F EA 0B 33 ... -- CPU_WriteMem(1024 bytes @ 0x20000198)  returns 0x400 (0013ms, 0911ms total)
T23EC 002:305 JLINK_WriteReg(R0, 0x08000400)  returns 0x00 (0000ms, 0911ms total)
T23EC 002:305 JLINK_WriteReg(R1, 0x00000400)  returns 0x00 (0000ms, 0911ms total)
T23EC 002:305 JLINK_WriteReg(R2, 0x20000198)  returns 0x00 (0000ms, 0911ms total)
T23EC 002:305 JLINK_WriteReg(R3, 0x00000000)  returns 0x00 (0000ms, 0911ms total)
T23EC 002:305 JLINK_WriteReg(R4, 0x00000000)  returns 0x00 (0000ms, 0911ms total)
T23EC 002:305 JLINK_WriteReg(R5, 0x00000000)  returns 0x00 (0000ms, 0911ms total)
T23EC 002:305 JLINK_WriteReg(R6, 0x00000000)  returns 0x00 (0000ms, 0911ms total)
T23EC 002:305 JLINK_WriteReg(R7, 0x00000000)  returns 0x00 (0000ms, 0911ms total)
T23EC 002:305 JLINK_WriteReg(R8, 0x00000000)  returns 0x00 (0000ms, 0911ms total)
T23EC 002:305 JLINK_WriteReg(R9, 0x20000194)  returns 0x00 (0000ms, 0911ms total)
T23EC 002:305 JLINK_WriteReg(R10, 0x00000000)  returns 0x00 (0000ms, 0911ms total)
T23EC 002:305 JLINK_WriteReg(R11, 0x00000000)  returns 0x00 (0000ms, 0911ms total)
T23EC 002:305 JLINK_WriteReg(R12, 0x00000000)  returns 0x00 (0000ms, 0911ms total)
T23EC 002:305 JLINK_WriteReg(R13 (SP), 0x20001000)  returns 0x00 (0000ms, 0911ms total)
T23EC 002:305 JLINK_WriteReg(R14, 0x20000001)  returns 0x00 (0000ms, 0911ms total)
T23EC 002:305 JLINK_WriteReg(R15 (PC), 0x20000120)  returns 0x00 (0000ms, 0911ms total)
T23EC 002:305 JLINK_WriteReg(XPSR, 0x01000000)  returns 0x00 (0000ms, 0911ms total)
T23EC 002:306 JLINK_WriteReg(MSP, 0x20001000)  returns 0x00 (0000ms, 0912ms total)
T23EC 002:306 JLINK_WriteReg(PSP, 0x20001000)  returns 0x00 (0000ms, 0912ms total)
T23EC 002:306 JLINK_WriteReg(CFBP, 0x00000000)  returns 0x00 (0000ms, 0912ms total)
T23EC 002:306 JLINK_SetBPEx(Addr = 0x20000000, Type = 0xFFFFFFF2)  returns 0x00000009 (0000ms, 0912ms total)
T23EC 002:306 JLINK_Go() -- CPU_ReadMem(4 bytes @ 0xE0001000) (0003ms, 0915ms total)
T23EC 002:309 JLINK_IsHalted()  returns FALSE (0000ms, 0915ms total)
T23EC 002:311 JLINK_IsHalted()  returns FALSE (0000ms, 0915ms total)
T23EC 002:326 JLINK_IsHalted() -- CPU_ReadMem(2 bytes @ 0x20000000)  returns TRUE (0004ms, 0919ms total)
T23EC 002:330 JLINK_ReadReg(R15 (PC))  returns 0x20000000 (0000ms, 0915ms total)
T23EC 002:330 JLINK_ClrBPEx(BPHandle = 0x00000009)  returns 0x00 (0000ms, 0915ms total)
T23EC 002:330 JLINK_ReadReg(R0)  returns 0x00000000 (0000ms, 0915ms total)
T23EC 002:332 JLINK_WriteMem(0x20000198, 0x0400 Bytes, ...) - Data: 60 11 00 20 10 B5 02 48 00 F0 C4 FB 10 BD 00 00 ... -- CPU_WriteMem(1024 bytes @ 0x20000198)  returns 0x400 (0012ms, 0927ms total)
T23EC 002:344 JLINK_WriteReg(R0, 0x08000800)  returns 0x00 (0000ms, 0927ms total)
T23EC 002:344 JLINK_WriteReg(R1, 0x00000400)  returns 0x00 (0000ms, 0927ms total)
T23EC 002:344 JLINK_WriteReg(R2, 0x20000198)  returns 0x00 (0000ms, 0927ms total)
T23EC 002:344 JLINK_WriteReg(R3, 0x00000000)  returns 0x00 (0000ms, 0927ms total)
T23EC 002:344 JLINK_WriteReg(R4, 0x00000000)  returns 0x00 (0000ms, 0927ms total)
T23EC 002:344 JLINK_WriteReg(R5, 0x00000000)  returns 0x00 (0000ms, 0927ms total)
T23EC 002:344 JLINK_WriteReg(R6, 0x00000000)  returns 0x00 (0000ms, 0927ms total)
T23EC 002:344 JLINK_WriteReg(R7, 0x00000000)  returns 0x00 (0000ms, 0927ms total)
T23EC 002:344 JLINK_WriteReg(R8, 0x00000000)  returns 0x00 (0000ms, 0927ms total)
T23EC 002:344 JLINK_WriteReg(R9, 0x20000194)  returns 0x00 (0000ms, 0927ms total)
T23EC 002:344 JLINK_WriteReg(R10, 0x00000000)  returns 0x00 (0000ms, 0927ms total)
T23EC 002:344 JLINK_WriteReg(R11, 0x00000000)  returns 0x00 (0000ms, 0927ms total)
T23EC 002:344 JLINK_WriteReg(R12, 0x00000000)  returns 0x00 (0000ms, 0927ms total)
T23EC 002:344 JLINK_WriteReg(R13 (SP), 0x20001000)  returns 0x00 (0000ms, 0927ms total)
T23EC 002:344 JLINK_WriteReg(R14, 0x20000001)  returns 0x00 (0000ms, 0927ms total)
T23EC 002:344 JLINK_WriteReg(R15 (PC), 0x20000120)  returns 0x00 (0000ms, 0927ms total)
T23EC 002:344 JLINK_WriteReg(XPSR, 0x01000000)  returns 0x00 (0000ms, 0927ms total)
T23EC 002:344 JLINK_WriteReg(MSP, 0x20001000)  returns 0x00 (0000ms, 0927ms total)
T23EC 002:344 JLINK_WriteReg(PSP, 0x20001000)  returns 0x00 (0000ms, 0927ms total)
T23EC 002:345 JLINK_WriteReg(CFBP, 0x00000000)  returns 0x00 (0000ms, 0928ms total)
T23EC 002:345 JLINK_SetBPEx(Addr = 0x20000000, Type = 0xFFFFFFF2)  returns 0x0000000A (0000ms, 0928ms total)
T23EC 002:345 JLINK_Go() -- CPU_ReadMem(4 bytes @ 0xE0001000) (0002ms, 0930ms total)
T23EC 002:347 JLINK_IsHalted()  returns FALSE (0002ms, 0932ms total)
T23EC 002:370 JLINK_IsHalted() -- CPU_ReadMem(2 bytes @ 0x20000000)  returns TRUE (0003ms, 0933ms total)
T23EC 002:373 JLINK_ReadReg(R15 (PC))  returns 0x20000000 (0000ms, 0930ms total)
T23EC 002:373 JLINK_ClrBPEx(BPHandle = 0x0000000A)  returns 0x00 (0000ms, 0930ms total)
T23EC 002:373 JLINK_ReadReg(R0)  returns 0x00000000 (0000ms, 0930ms total)
T23EC 002:374 JLINK_WriteMem(0x20000198, 0x0400 Bytes, ...) - Data: 01 F0 BE F8 10 BD 00 BF FE E7 00 00 10 B5 2D ED ... -- CPU_WriteMem(1024 bytes @ 0x20000198)  returns 0x400 (0014ms, 0944ms total)
T23EC 002:388 JLINK_WriteReg(R0, 0x08000C00)  returns 0x00 (0000ms, 0944ms total)
T23EC 002:388 JLINK_WriteReg(R1, 0x00000400)  returns 0x00 (0000ms, 0944ms total)
T23EC 002:388 JLINK_WriteReg(R2, 0x20000198)  returns 0x00 (0000ms, 0944ms total)
T23EC 002:388 JLINK_WriteReg(R3, 0x00000000)  returns 0x00 (0000ms, 0944ms total)
T23EC 002:388 JLINK_WriteReg(R4, 0x00000000)  returns 0x00 (0000ms, 0944ms total)
T23EC 002:388 JLINK_WriteReg(R5, 0x00000000)  returns 0x00 (0000ms, 0944ms total)
T23EC 002:388 JLINK_WriteReg(R6, 0x00000000)  returns 0x00 (0000ms, 0944ms total)
T23EC 002:388 JLINK_WriteReg(R7, 0x00000000)  returns 0x00 (0000ms, 0944ms total)
T23EC 002:388 JLINK_WriteReg(R8, 0x00000000)  returns 0x00 (0000ms, 0944ms total)
T23EC 002:388 JLINK_WriteReg(R9, 0x20000194)  returns 0x00 (0000ms, 0944ms total)
T23EC 002:388 JLINK_WriteReg(R10, 0x00000000)  returns 0x00 (0000ms, 0944ms total)
T23EC 002:388 JLINK_WriteReg(R11, 0x00000000)  returns 0x00 (0000ms, 0944ms total)
T23EC 002:388 JLINK_WriteReg(R12, 0x00000000)  returns 0x00 (0000ms, 0944ms total)
T23EC 002:388 JLINK_WriteReg(R13 (SP), 0x20001000)  returns 0x00 (0000ms, 0944ms total)
T23EC 002:388 JLINK_WriteReg(R14, 0x20000001)  returns 0x00 (0000ms, 0944ms total)
T23EC 002:388 JLINK_WriteReg(R15 (PC), 0x20000120)  returns 0x00 (0000ms, 0944ms total)
T23EC 002:388 JLINK_WriteReg(XPSR, 0x01000000)  returns 0x00 (0000ms, 0944ms total)
T23EC 002:388 JLINK_WriteReg(MSP, 0x20001000)  returns 0x00 (0000ms, 0944ms total)
T23EC 002:388 JLINK_WriteReg(PSP, 0x20001000)  returns 0x00 (0000ms, 0944ms total)
T23EC 002:388 JLINK_WriteReg(CFBP, 0x00000000)  returns 0x00 (0000ms, 0944ms total)
T23EC 002:388 JLINK_SetBPEx(Addr = 0x20000000, Type = 0xFFFFFFF2)  returns 0x0000000B (0000ms, 0944ms total)
T23EC 002:388 JLINK_Go() -- CPU_ReadMem(4 bytes @ 0xE0001000) (0003ms, 0947ms total)
T23EC 002:391 JLINK_IsHalted()  returns FALSE (0001ms, 0948ms total)
T23EC 002:436 JLINK_IsHalted() -- CPU_ReadMem(2 bytes @ 0x20000000)  returns TRUE (0004ms, 0951ms total)
T23EC 002:440 JLINK_ReadReg(R15 (PC))  returns 0x20000000 (0000ms, 0947ms total)
T23EC 002:440 JLINK_ClrBPEx(BPHandle = 0x0000000B)  returns 0x00 (0000ms, 0947ms total)
T23EC 002:440 JLINK_ReadReg(R0)  returns 0x00000000 (0000ms, 0947ms total)
T23EC 002:441 JLINK_WriteMem(0x20000198, 0x0400 Bytes, ...) - Data: 40 06 25 B1 1E B1 00 21 20 46 FF F7 03 FC 20 68 ... -- CPU_WriteMem(1024 bytes @ 0x20000198)  returns 0x400 (0013ms, 0960ms total)
T23EC 002:454 JLINK_WriteReg(R0, 0x08001000)  returns 0x00 (0000ms, 0960ms total)
T23EC 002:454 JLINK_WriteReg(R1, 0x00000400)  returns 0x00 (0000ms, 0960ms total)
T23EC 002:454 JLINK_WriteReg(R2, 0x20000198)  returns 0x00 (0000ms, 0960ms total)
T23EC 002:454 JLINK_WriteReg(R3, 0x00000000)  returns 0x00 (0000ms, 0960ms total)
T23EC 002:454 JLINK_WriteReg(R4, 0x00000000)  returns 0x00 (0000ms, 0960ms total)
T23EC 002:454 JLINK_WriteReg(R5, 0x00000000)  returns 0x00 (0000ms, 0960ms total)
T23EC 002:454 JLINK_WriteReg(R6, 0x00000000)  returns 0x00 (0000ms, 0960ms total)
T23EC 002:454 JLINK_WriteReg(R7, 0x00000000)  returns 0x00 (0000ms, 0960ms total)
T23EC 002:454 JLINK_WriteReg(R8, 0x00000000)  returns 0x00 (0000ms, 0960ms total)
T23EC 002:454 JLINK_WriteReg(R9, 0x20000194)  returns 0x00 (0000ms, 0960ms total)
T23EC 002:454 JLINK_WriteReg(R10, 0x00000000)  returns 0x00 (0000ms, 0960ms total)
T23EC 002:454 JLINK_WriteReg(R11, 0x00000000)  returns 0x00 (0000ms, 0960ms total)
T23EC 002:454 JLINK_WriteReg(R12, 0x00000000)  returns 0x00 (0000ms, 0960ms total)
T23EC 002:454 JLINK_WriteReg(R13 (SP), 0x20001000)  returns 0x00 (0000ms, 0960ms total)
T23EC 002:454 JLINK_WriteReg(R14, 0x20000001)  returns 0x00 (0000ms, 0960ms total)
T23EC 002:454 JLINK_WriteReg(R15 (PC), 0x20000120)  returns 0x00 (0001ms, 0961ms total)
T23EC 002:455 JLINK_WriteReg(XPSR, 0x01000000)  returns 0x00 (0000ms, 0961ms total)
T23EC 002:455 JLINK_WriteReg(MSP, 0x20001000)  returns 0x00 (0000ms, 0961ms total)
T23EC 002:455 JLINK_WriteReg(PSP, 0x20001000)  returns 0x00 (0000ms, 0961ms total)
T23EC 002:455 JLINK_WriteReg(CFBP, 0x00000000)  returns 0x00 (0000ms, 0961ms total)
T23EC 002:455 JLINK_SetBPEx(Addr = 0x20000000, Type = 0xFFFFFFF2)  returns 0x0000000C (0000ms, 0961ms total)
T23EC 002:455 JLINK_Go() -- CPU_ReadMem(4 bytes @ 0xE0001000) (0003ms, 0964ms total)
T23EC 002:458 JLINK_IsHalted()  returns FALSE (0001ms, 0965ms total)
T23EC 002:523 JLINK_IsHalted() -- CPU_ReadMem(2 bytes @ 0x20000000)  returns TRUE (0004ms, 0968ms total)
T23EC 002:527 JLINK_ReadReg(R15 (PC))  returns 0x20000000 (0000ms, 0964ms total)
T23EC 002:527 JLINK_ClrBPEx(BPHandle = 0x0000000C)  returns 0x00 (0000ms, 0964ms total)
T23EC 002:527 JLINK_ReadReg(R0)  returns 0x00000000 (0000ms, 0964ms total)
T23EC 002:529 JLINK_WriteMem(0x20000198, 0x0400 Bytes, ...) - Data: 02 90 00 20 03 90 03 20 04 90 09 20 05 90 01 A9 ... -- CPU_WriteMem(1024 bytes @ 0x20000198)  returns 0x400 (0012ms, 0976ms total)
T23EC 002:541 JLINK_WriteReg(R0, 0x08001400)  returns 0x00 (0000ms, 0976ms total)
T23EC 002:541 JLINK_WriteReg(R1, 0x00000400)  returns 0x00 (0001ms, 0977ms total)
T23EC 002:542 JLINK_WriteReg(R2, 0x20000198)  returns 0x00 (0000ms, 0977ms total)
T23EC 002:542 JLINK_WriteReg(R3, 0x00000000)  returns 0x00 (0000ms, 0977ms total)
T23EC 002:542 JLINK_WriteReg(R4, 0x00000000)  returns 0x00 (0000ms, 0977ms total)
T23EC 002:542 JLINK_WriteReg(R5, 0x00000000)  returns 0x00 (0000ms, 0977ms total)
T23EC 002:542 JLINK_WriteReg(R6, 0x00000000)  returns 0x00 (0000ms, 0977ms total)
T23EC 002:542 JLINK_WriteReg(R7, 0x00000000)  returns 0x00 (0000ms, 0977ms total)
T23EC 002:542 JLINK_WriteReg(R8, 0x00000000)  returns 0x00 (0000ms, 0977ms total)
T23EC 002:542 JLINK_WriteReg(R9, 0x20000194)  returns 0x00 (0000ms, 0977ms total)
T23EC 002:542 JLINK_WriteReg(R10, 0x00000000)  returns 0x00 (0000ms, 0977ms total)
T23EC 002:542 JLINK_WriteReg(R11, 0x00000000)  returns 0x00 (0000ms, 0977ms total)
T23EC 002:542 JLINK_WriteReg(R12, 0x00000000)  returns 0x00 (0000ms, 0977ms total)
T23EC 002:542 JLINK_WriteReg(R13 (SP), 0x20001000)  returns 0x00 (0000ms, 0977ms total)
T23EC 002:542 JLINK_WriteReg(R14, 0x20000001)  returns 0x00 (0000ms, 0977ms total)
T23EC 002:542 JLINK_WriteReg(R15 (PC), 0x20000120)  returns 0x00 (0000ms, 0977ms total)
T23EC 002:542 JLINK_WriteReg(XPSR, 0x01000000)  returns 0x00 (0000ms, 0977ms total)
T23EC 002:542 JLINK_WriteReg(MSP, 0x20001000)  returns 0x00 (0000ms, 0977ms total)
T23EC 002:542 JLINK_WriteReg(PSP, 0x20001000)  returns 0x00 (0000ms, 0977ms total)
T23EC 002:542 JLINK_WriteReg(CFBP, 0x00000000)  returns 0x00 (0000ms, 0977ms total)
T23EC 002:542 JLINK_SetBPEx(Addr = 0x20000000, Type = 0xFFFFFFF2)  returns 0x0000000D (0000ms, 0977ms total)
T23EC 002:542 JLINK_Go() -- CPU_ReadMem(4 bytes @ 0xE0001000) (0003ms, 0980ms total)
T23EC 002:545 JLINK_IsHalted()  returns FALSE (0000ms, 0980ms total)
T23EC 002:742 JLINK_IsHalted() -- CPU_ReadMem(2 bytes @ 0x20000000)  returns TRUE (0005ms, 0985ms total)
T23EC 002:747 JLINK_ReadReg(R15 (PC))  returns 0x20000000 (0000ms, 0980ms total)
T23EC 002:747 JLINK_ClrBPEx(BPHandle = 0x0000000D)  returns 0x00 (0000ms, 0980ms total)
T23EC 002:747 JLINK_ReadReg(R0)  returns 0x00000000 (0000ms, 0980ms total)
T23EC 002:748 JLINK_WriteMem(0x20000198, 0x0400 Bytes, ...) - Data: 20 6B 40 7D 41 EA 00 20 21 6B 09 7D 08 43 21 68 ... -- CPU_WriteMem(1024 bytes @ 0x20000198)  returns 0x400 (0012ms, 0992ms total)
T23EC 002:760 JLINK_WriteReg(R0, 0x08001800)  returns 0x00 (0000ms, 0992ms total)
T23EC 002:761 JLINK_WriteReg(R1, 0x00000400)  returns 0x00 (0000ms, 0992ms total)
T23EC 002:761 JLINK_WriteReg(R2, 0x20000198)  returns 0x00 (0000ms, 0992ms total)
T23EC 002:761 JLINK_WriteReg(R3, 0x00000000)  returns 0x00 (0000ms, 0992ms total)
T23EC 002:761 JLINK_WriteReg(R4, 0x00000000)  returns 0x00 (0000ms, 0992ms total)
T23EC 002:761 JLINK_WriteReg(R5, 0x00000000)  returns 0x00 (0000ms, 0992ms total)
T23EC 002:761 JLINK_WriteReg(R6, 0x00000000)  returns 0x00 (0000ms, 0992ms total)
T23EC 002:761 JLINK_WriteReg(R7, 0x00000000)  returns 0x00 (0000ms, 0992ms total)
T23EC 002:761 JLINK_WriteReg(R8, 0x00000000)  returns 0x00 (0000ms, 0992ms total)
T23EC 002:761 JLINK_WriteReg(R9, 0x20000194)  returns 0x00 (0000ms, 0992ms total)
T23EC 002:761 JLINK_WriteReg(R10, 0x00000000)  returns 0x00 (0000ms, 0992ms total)
T23EC 002:761 JLINK_WriteReg(R11, 0x00000000)  returns 0x00 (0000ms, 0992ms total)
T23EC 002:761 JLINK_WriteReg(R12, 0x00000000)  returns 0x00 (0000ms, 0992ms total)
T23EC 002:761 JLINK_WriteReg(R13 (SP), 0x20001000)  returns 0x00 (0000ms, 0992ms total)
T23EC 002:761 JLINK_WriteReg(R14, 0x20000001)  returns 0x00 (0000ms, 0992ms total)
T23EC 002:761 JLINK_WriteReg(R15 (PC), 0x20000120)  returns 0x00 (0000ms, 0992ms total)
T23EC 002:761 JLINK_WriteReg(XPSR, 0x01000000)  returns 0x00 (0000ms, 0992ms total)
T23EC 002:761 JLINK_WriteReg(MSP, 0x20001000)  returns 0x00 (0000ms, 0992ms total)
T23EC 002:762 JLINK_WriteReg(PSP, 0x20001000)  returns 0x00 (0000ms, 0993ms total)
T23EC 002:762 JLINK_WriteReg(CFBP, 0x00000000)  returns 0x00 (0000ms, 0993ms total)
T23EC 002:762 JLINK_SetBPEx(Addr = 0x20000000, Type = 0xFFFFFFF2)  returns 0x0000000E (0000ms, 0993ms total)
T23EC 002:762 JLINK_Go() -- CPU_ReadMem(4 bytes @ 0xE0001000) (0002ms, 0995ms total)
T23EC 002:764 JLINK_IsHalted()  returns FALSE (0001ms, 0996ms total)
T23EC 002:854 JLINK_IsHalted() -- CPU_ReadMem(2 bytes @ 0x20000000)  returns TRUE (0004ms, 0999ms total)
T23EC 002:858 JLINK_ReadReg(R15 (PC))  returns 0x20000000 (0000ms, 0995ms total)
T23EC 002:858 JLINK_ClrBPEx(BPHandle = 0x0000000E)  returns 0x00 (0000ms, 0995ms total)
T23EC 002:858 JLINK_ReadReg(R0)  returns 0x00000000 (0000ms, 0995ms total)
T23EC 002:859 JLINK_WriteMem(0x20000198, 0x0400 Bytes, ...) - Data: 00 BF 02 20 84 F8 35 00 20 68 00 68 20 F0 01 00 ... -- CPU_WriteMem(1024 bytes @ 0x20000198)  returns 0x400 (0012ms, 1007ms total)
T23EC 002:871 JLINK_WriteReg(R0, 0x08001C00)  returns 0x00 (0000ms, 1007ms total)
T23EC 002:871 JLINK_WriteReg(R1, 0x00000400)  returns 0x00 (0000ms, 1007ms total)
T23EC 002:871 JLINK_WriteReg(R2, 0x20000198)  returns 0x00 (0000ms, 1007ms total)
T23EC 002:871 JLINK_WriteReg(R3, 0x00000000)  returns 0x00 (0000ms, 1007ms total)
T23EC 002:871 JLINK_WriteReg(R4, 0x00000000)  returns 0x00 (0000ms, 1007ms total)
T23EC 002:871 JLINK_WriteReg(R5, 0x00000000)  returns 0x00 (0000ms, 1007ms total)
T23EC 002:871 JLINK_WriteReg(R6, 0x00000000)  returns 0x00 (0000ms, 1007ms total)
T23EC 002:871 JLINK_WriteReg(R7, 0x00000000)  returns 0x00 (0000ms, 1007ms total)
T23EC 002:871 JLINK_WriteReg(R8, 0x00000000)  returns 0x00 (0000ms, 1007ms total)
T23EC 002:871 JLINK_WriteReg(R9, 0x20000194)  returns 0x00 (0000ms, 1007ms total)
T23EC 002:871 JLINK_WriteReg(R10, 0x00000000)  returns 0x00 (0000ms, 1007ms total)
T23EC 002:871 JLINK_WriteReg(R11, 0x00000000)  returns 0x00 (0000ms, 1007ms total)
T23EC 002:871 JLINK_WriteReg(R12, 0x00000000)  returns 0x00 (0000ms, 1007ms total)
T23EC 002:871 JLINK_WriteReg(R13 (SP), 0x20001000)  returns 0x00 (0000ms, 1007ms total)
T23EC 002:871 JLINK_WriteReg(R14, 0x20000001)  returns 0x00 (0000ms, 1007ms total)
T23EC 002:871 JLINK_WriteReg(R15 (PC), 0x20000120)  returns 0x00 (0000ms, 1007ms total)
T23EC 002:871 JLINK_WriteReg(XPSR, 0x01000000)  returns 0x00 (0000ms, 1007ms total)
T23EC 002:871 JLINK_WriteReg(MSP, 0x20001000)  returns 0x00 (0000ms, 1007ms total)
T23EC 002:871 JLINK_WriteReg(PSP, 0x20001000)  returns 0x00 (0000ms, 1007ms total)
T23EC 002:871 JLINK_WriteReg(CFBP, 0x00000000)  returns 0x00 (0000ms, 1007ms total)
T23EC 002:871 JLINK_SetBPEx(Addr = 0x20000000, Type = 0xFFFFFFF2)  returns 0x0000000F (0000ms, 1007ms total)
T23EC 002:871 JLINK_Go() -- CPU_ReadMem(4 bytes @ 0xE0001000) (0004ms, 1011ms total)
T23EC 002:875 JLINK_IsHalted()  returns FALSE (0000ms, 1011ms total)
T23EC 002:931 JLINK_IsHalted() -- CPU_ReadMem(2 bytes @ 0x20000000)  returns TRUE (0005ms, 1016ms total)
T23EC 002:936 JLINK_ReadReg(R15 (PC))  returns 0x20000000 (0000ms, 1011ms total)
T23EC 002:936 JLINK_ClrBPEx(BPHandle = 0x0000000F)  returns 0x00 (0000ms, 1011ms total)
T23EC 002:936 JLINK_ReadReg(R0)  returns 0x00000000 (0000ms, 1011ms total)
T23EC 002:936 JLINK_WriteMem(0x20000198, 0x0400 Bytes, ...) - Data: 00 68 40 F4 80 60 08 60 08 46 00 68 40 F4 80 70 ... -- CPU_WriteMem(1024 bytes @ 0x20000198)  returns 0x400 (0014ms, 1025ms total)
T23EC 002:950 JLINK_WriteReg(R0, 0x08002000)  returns 0x00 (0000ms, 1025ms total)
T23EC 002:950 JLINK_WriteReg(R1, 0x00000400)  returns 0x00 (0000ms, 1025ms total)
T23EC 002:950 JLINK_WriteReg(R2, 0x20000198)  returns 0x00 (0000ms, 1025ms total)
T23EC 002:950 JLINK_WriteReg(R3, 0x00000000)  returns 0x00 (0000ms, 1025ms total)
T23EC 002:950 JLINK_WriteReg(R4, 0x00000000)  returns 0x00 (0000ms, 1025ms total)
